"Freq [GHz]","Phi [deg]","Theta [deg]","mag(rEX) [V]"
2.6,0,0,10.6907684816086
2.6,0,1,10.3688544649859
2.6,0,2,10.0700413041401
2.6,0,3,9.80922499902271
2.6,0,4,9.59877676071698
2.6,0,5,9.44789294356076
2.6,0,6,9.36217142289374
2.6,0,7,9.34342360988844
2.6,0,8,9.3897078915348
2.6,0,9,9.4955578954629
2.6,0,10,9.65237830887851
2.6,0,11,9.84898533184441
2.6,0,12,10.072269665726
2.6,0,13,10.3079534335125
2.6,0,14,10.5414013047695
2.6,0,15,10.7584361396076
2.6,0,16,10.9461051961316
2.6,0,17,11.0933457309954
2.6,0,18,11.191507506031
2.6,0,19,11.2347021239733
2.6,0,20,11.2199631866139
2.6,0,21,11.1472154791769
2.6,0,22,11.0190647655932
2.6,0,23,10.8404317577083
2.6,0,24,10.6180640477424
2.6,0,25,10.3599679737586
2.6,0,26,10.0748081152213
2.6,0,27,9.77132472184271
2.6,0,28,9.45781789249063
2.6,0,29,9.14174065452762
2.6,0,30,8.82943054486459
2.6,0,31,8.52599127343812
2.6,0,32,8.23531470262217
2.6,0,33,7.96021260338355
2.6,0,34,7.70261222319228
2.6,0,35,7.46376368078864
2.6,0,36,7.24441237724049
2.6,0,37,7.04490475930124
2.6,0,38,6.86521703467133
2.6,0,39,6.70491850171229
2.6,0,40,6.56309864097025
2.6,0,41,6.43829586681292
2.6,0,42,6.32846397663217
2.6,0,43,6.23100091993505
2.6,0,44,6.14284738932454
2.6,0,45,6.06064531039317
2.6,0,46,5.98093352916673
2.6,0,47,5.90035258494158
2.6,0,48,5.81583228466647
2.6,0,49,5.72474259806283
2.6,0,50,5.62499717096207
2.6,0,51,5.51510700068584
2.6,0,52,5.39418809283056
2.6,0,53,5.26193081190182
2.6,0,54,5.11854040872534
2.6,0,55,4.96465840342164
2.6,0,56,4.80127369437371
2.6,0,57.0000000000001,4.62963091539311
2.6,0,58.0000000000001,4.45114200214601
2.6,0,59.0000000000001,4.26730536190871
2.6,0,60.0000000000001,4.07963558764769
2.6,0,61.0000000000001,3.88960538105847
2.6,0,62.0000000000001,3.69860027770279
2.6,0,63.0000000000001,3.50788590853964
2.6,0,64.0000000000001,3.31858688157715
2.6,0,65.0000000000001,3.13167591290652
2.6,0,66.0000000000001,2.94797156023923
2.6,0,67.0000000000001,2.76814279212628
2.6,0,68.0000000000001,2.59271863678612
2.6,0,69.0000000000001,2.42210126812986
2.6,0,70.0000000000001,2.2565810744616
2.6,0,71.0000000000001,2.09635248941707
2.6,0,72.0000000000001,1.94152961922229
2.6,0,73.0000000000001,1.79216095324451
2.6,0,74.0000000000001,1.64824267876265
2.6,0,75.0000000000001,1.50973032387475
2.6,0,76.0000000000001,1.37654861769606
2.6,0,77.0000000000001,1.24859958239391
2.6,0,78.0000000000001,1.12576895886049
2.6,0,79.0000000000001,1.00793112136797
2.6,0,80.0000000000001,0.894952662436983
2.6,0,81.0000000000001,0.786694834121294
2.6,0,82.0000000000001,0.68301502266122
2.6,0,83.0000000000001,0.583767416151551
2.6,0,84.0000000000001,0.488803004890593
2.6,0,85.0000000000001,0.397969035949962
2.6,0,86.0000000000001,0.311108030931145
2.6,0,87.0000000000001,0.228056471798038
2.6,0,88.0000000000001,0.14864326631417
2.6,0,89.0000000000001,0.0726881233931322
2.6,0,90.0000000000001,1.00700597972834e-14
2.6,0,91.0000000000001,0.0696241758854978
2.6,0,92.0000000000001,0.13640025029731
2.6,0,93.0000000000001,0.200556745951361
2.6,0,94.0000000000001,0.262333563565517
2.6,0,95.0000000000001,0.321979091991933
2.6,0,96.0000000000001,0.379745338904338
2.6,0,97.0000000000001,0.435880743296079
2.6,0,98.0000000000001,0.490620441761811
2.6,0,99.0000000000001,0.544173939447816
2.6,0,100,0.596710380285071
2.6,0,101,0.648341903335825
2.6,0,102,0.699105884079034
2.6,0,103,0.74894715481421
2.6,0,104,0.79770154113402
2.6,0,105,0.845082215493513
2.6,0,106,0.890670445204719
2.6,0,107,0.933912310917056
2.6,0,108,0.974122918945122
2.6,0,109,1.01049956162525
2.6,0,110,1.04214523058054
2.6,0,111,1.0681038917612
2.6,0,112,1.08740901895198
2.6,0,113,1.09914708458219
2.6,0,114,1.1025380524865
2.6,0,115,1.0970354140155
2.6,0,116,1.08244886241889
2.6,0,117,1.05909288610169
2.6,0,118,1.02796304620667
2.6,0,119,0.990934972943362
2.6,0,120,0.9509612864402
2.6,0,121,0.912195101005976
2.6,0,122,0.879885053301653
2.6,0,123,0.859800775055835
2.6,0,124,0.8570129512334
2.6,0,125,0.874273924407119
2.6,0,126,0.910827148583361
2.6,0,127,0.962423653490402
2.6,0,128,1.02242445627271
2.6,0,129,1.08318373014746
2.6,0,130,1.13710592043094
2.6,0,131,1.17728210683967
2.6,0,132,1.19786693914713
2.6,0,133,1.1943648335791
2.6,0,134,1.16393459091961
2.6,0,135,1.10579068222611
2.6,0,136,1.021805304192
2.6,0,137,0.917518319468165
2.6,0,138,0.8039444921524
2.6,0,139,0.700477068492269
2.6,0,140,0.636576052663822
2.6,0,141,0.641577056846276
2.6,0,142,0.719324075370114
2.6,0,143,0.844309555798827
2.6,0,144,0.985078854498089
2.6,0,145,1.1170908159713
2.6,0,146,1.22286050281336
2.6,0,147,1.29005200142145
2.6,0,148,1.31052058954818
2.6,0,149,1.28023206990061
2.6,0,150,1.19981582499485
2.6,0,151,1.07589917314556
2.6,0,152,0.924081692880132
2.6,0,153,0.775451586585044
2.6,0,154,0.68514145249474
2.6,0,155,0.713496845509147
2.6,0,156,0.859662469991945
2.6,0,157,1.06689562176129
2.6,0,158,1.28328182270783
2.6,0,159,1.47486053604398
2.6,0,160,1.61918012823363
2.6,0,161,1.70111704249114
2.6,0,162,1.7113953591142
2.6,0,163,1.64624699531722
2.6,0,164,1.50746168862476
2.6,0,165,1.30263274602912
2.6,0,166,1.04596230161881
2.6,0,167,0.76167369937915
2.6,0,168,0.500505692236219
2.6,0,169,0.396828333933835
2.6,0,169.999999999999,0.545941156670518
2.6,0,170.999999999999,0.783999185214327
2.6,0,171.999999999999,1.00459962901973
2.6,0,172.999999999999,1.16941053517412
2.6,0,173.999999999999,1.26007160216969
2.6,0,174.999999999999,1.26746023073309
2.6,0,175.999999999999,1.1893590124912
2.6,0,176.999999999999,1.02971728946145
2.6,0,177.999999999999,0.798108993650072
2.6,0,178.999999999999,0.509144258624422
2.6,0,179.999999999999,0.183451128007138
2.6,1,0,10.6907684816086
2.6,1,1,10.3706114587858
2.6,1,2,10.0736308281488
2.6,1,3,9.81471547541119
2.6,1,4,9.60622414328975
2.6,1,5,9.45733397439205
2.6,1,6,9.37361593379945
2.6,1,7,9.35684681755338
2.6,1,8,9.40504405357185
2.6,1,9,9.51269679397972
2.6,1,10,9.67116568980702
2.6,1,11,9.86922773480788
2.6,1,12,10.0937432783389
2.6,1,13,10.3304159623586
2.6,1,14,10.5646055202551
2.6,1,15,10.7821437169932
2.6,1,16,10.9700996406928
2.6,1,17,11.1174434312588
2.6,1,18,11.2155662322975
2.6,1,19,11.2586265489607
2.6,1,20,11.2437072454686
2.6,1,21,11.1707816092316
2.6,1,22,11.0425002714684
2.6,1,23,10.863822729012
2.6,1,24,10.641527405592
2.6,1,25,10.3836423281551
2.6,1,26,10.0988441674266
2.6,1,27,9.79587593420361
2.6,1,28,9.48303206407999
2.6,1,29,9.16775288132636
2.6,1,30,8.85635781700564
2.6,1,31,8.55392869782727
2.6,1,32,8.26433308711529
2.6,1,33,7.9903569611415
2.6,1,34,7.73390070737325
2.6,1,35,7.49618656301177
2.6,1,36,7.27793091369874
2.6,1,37,7.07945007599127
2.6,1,38,6.90068941147201
2.6,1,39,6.74118755143266
2.6,1,40,6.60000480918266
2.6,1,41,6.47565343135346
2.6,1,42,6.36606538372464
2.6,1,43,6.26862198431535
2.6,1,44,6.18025272697744
2.6,1,45,6.09759341778663
2.6,1,46,6.01718113707334
2.6,1,47,5.93565819947727
2.6,1,48,5.84995907484522
2.6,1,49,5.7574609275204
2.6,1,50,5.6560870861681
2.6,1,51,5.54436090685945
2.6,1,52,5.42141371865132
2.6,1,53,5.28695442925926
2.6,1,54,5.14121016484318
2.6,1,55,4.9848475547972
2.6,1,56,4.81888350766012
2.6,1,57.0000000000001,4.64459301423622
2.6,1,58.0000000000001,4.46341998166062
2.6,1,59.0000000000001,4.27689555326301
2.6,1,60.0000000000001,4.08656692384368
2.6,1,61.0000000000001,3.89393838251303
2.6,1,62.0000000000001,3.7004252355462
2.6,1,63.0000000000001,3.50732038963479
2.6,1,64.0000000000001,3.31577270926331
2.6,1,65.0000000000001,3.12677579062169
2.6,1,66.0000000000001,2.94116550260132
2.6,1,67.0000000000001,2.7596245124221
2.6,1,68.0000000000001,2.58269201485721
2.6,1,69.0000000000001,2.41077699259544
2.6,1,70.0000000000001,2.24417352226011
2.6,1,71.0000000000001,2.08307687739483
2.6,1,72.0000000000001,1.92759943963019
2.6,1,73.0000000000001,1.77778568906936
2.6,1,74.0000000000001,1.63362578623487
2.6,1,75.0000000000001,1.49506746770369
2.6,1,76.0000000000001,1.36202614835683
2.6,1,77.0000000000001,1.23439325256839
2.6,1,78.0000000000001,1.11204288642589
2.6,1,79.0000000000001,0.994837018097048
2.6,1,80.0000000000001,0.88262936076593
2.6,1,81.0000000000001,0.775268160733729
2.6,1,82.0000000000001,0.672598092839219
2.6,1,83.0000000000001,0.574461471653184
2.6,1,84.0000000000001,0.480699030670855
2.6,1,85.0000000000001,0.391150687955039
2.6,1,86.0000000000001,0.305657309811219
2.6,1,87.0000000000001,0.224066905184391
2.6,1,88.0000000000001,0.146261953629285
2.6,1,89.0000000000001,0.0723543738817789
2.6,1,90.0000000000001,0.0130027715642332
2.6,1,91.0000000000001,0.0693484253159697
2.6,1,92.0000000000001,0.133955830913384
2.6,1,93.0000000000001,0.196292550721742
2.6,1,94.0000000000001,0.256297039556064
2.6,1,95.0000000000001,0.314150972701979
2.6,1,96.0000000000001,0.370079789160044
2.6,1,97.0000000000001,0.424318111739826
2.6,1,98.0000000000001,0.477094073549507
2.6,1,99.0000000000001,0.528615863725634
2.6,1,100,0.579057245455851
2.6,1,101,0.628541499269515
2.6,1,102,0.677124164851114
2.6,1,103,0.724775454800085
2.6,1,104,0.771363555801778
2.6,1,105,0.816640264601914
2.6,1,106,0.86023053549364
2.6,1,107,0.901627553435206
2.6,1,108,0.940194916269992
2.6,1,109,0.975177445449759
2.6,1,110,1.0057220860849
2.6,1,111,1.03091034183289
2.6,1,112,1.04980375314846
2.6,1,113,1.06150410293107
2.6,1,114,1.06523035469657
2.6,1,115,1.06041481033854
2.6,1,116,1.04682154620016
2.6,1,117,1.02469048495865
2.6,1,118,0.994909302349191
2.6,1,119,0.95920954461113
2.6,1,120,0.920365448552749
2.6,1,121,0.882330635185872
2.6,1,122,0.850166806999504
2.6,1,123,0.82952732367809
2.6,1,124,0.825500316045487
2.6,1,125,0.84100841140061
2.6,1,126,0.875561823323197
2.6,1,127,0.925184392494746
2.6,1,128,0.983460745487667
2.6,1,129,1.04291348083565
2.6,1,130,1.09607402438575
2.6,1,131,1.13613031533846
2.6,1,132,1.15730911363836
2.6,1,133,1.15516536715008
2.6,1,134,1.12689182200419
2.6,1,135,1.07173061436887
2.6,1,136,0.991594871420268
2.6,1,137,0.892110484458407
2.6,1,138,0.784452350035978
2.6,1,139,0.688152728520988
2.6,1,140,0.632174136548392
2.6,1,141,0.643789871875448
2.6,1,142,0.724778306542617
2.6,1,143,0.850055420610414
2.6,1,144,0.989693159142706
2.6,1,145,1.12023023830128
2.6,1,146,1.22474589261922
2.6,1,147,1.29118740239904
2.6,1,148,1.31155664623108
2.6,1,149,1.28190019574488
2.6,1,150,1.2029009341755
2.6,1,151,1.08123311041852
2.6,1,152,0.932505331839095
2.6,1,153,0.78749254524411
2.6,1,154,0.699728606718095
2.6,1,155,0.726881956997086
2.6,1,156,0.868920343298128
2.6,1,157,1.0719386611767
2.6,1,158,1.28500183906284
2.6,1,159,1.47414282577683
2.6,1,160,1.61675546557893
2.6,1,161,1.6975794610963
2.6,1,162,1.7072215568067
2.6,1,163,1.64179828012985
2.6,1,164,1.50296931246146
2.6,1,165,1.29816143236456
2.6,1,166,1.04132536497155
2.6,1,167,0.756212898376606
2.6,1,168,0.492638197295684
2.6,1,169,0.386255721516539
2.6,1,169.999999999999,0.537254496213656
2.6,1,170.999999999999,0.777128518345905
2.6,1,171.999999999999,0.998760209452532
2.6,1,172.999999999999,1.16431295461809
2.6,1,173.999999999999,1.25565697401057
2.6,1,174.999999999999,1.26375393536801
2.6,1,175.999999999999,1.18640430613104
2.6,1,176.999999999999,1.02754324371117
2.6,1,177.999999999999,0.79671518848302
2.6,1,178.999999999999,0.508494147082408
2.6,1,179.999999999999,0.183451128007137
2.6,2,0,10.6907684816086
2.6,2,1,10.3724641068694
2.6,2,2,10.0773963181933
2.6,2,3,9.82043654562439
2.6,2,4,9.61392328526515
2.6,2,5,9.46700986555578
2.6,2,6,9.38523925473111
2.6,2,7,9.37035611200592
2.6,2,8,9.42034272839663
2.6,2,9,9.52965250133199
2.6,2,10,9.68961304548023
2.6,2,11,9.88897467409581
2.6,2,12,10.1145805836712
2.6,2,13,10.3521288908709
2.6,2,14,10.5869861691138
2.6,2,15,10.8050027845433
2.6,2,16,10.9932764693312
2.6,2,17,11.1408135379324
2.6,2,18,11.2390458662372
2.6,2,19,11.2821741277217
2.6,2,20,11.2673217991496
2.6,2,21,11.194498605896
2.6,2,22,11.0663853983649
2.6,2,23,10.8879643527661
2.6,2,24,10.6660285149495
2.6,2,25,10.408612759792
2.6,2,26,10.1243938174373
2.6,2,27,9.82210946276436
2.6,2,28,9.51004532097185
2.6,2,29,9.19563094876899
2.6,2,30,8.8851742398445
2.6,2,31,8.58374522261492
2.6,2,32,8.29519913346649
2.6,2,33,8.0223081473923
2.6,2,34,7.76695604586559
2.6,2,35,7.53034436960666
2.6,2,36,7.31316393834843
2.6,2,37,7.11570073534941
2.6,2,38,6.93786618183412
2.6,2,39,6.77916349198539
2.6,2,40,6.63861882682834
2.6,2,41,6.51471434476138
2.6,2,42,6.40535824607098
2.6,2,43,6.30791566511459
2.6,2,44,6.21930757908375
2.6,2,45,6.13616800749339
2.6,2,46,6.05503741278713
2.6,2,47,5.97256495946078
2.6,2,48,5.885694007696
2.6,2,49,5.79181174189642
2.6,2,50,5.68885230003733
2.6,2,51,5.57535077260453
2.6,2,52,5.45045158530697
2.6,2,53,5.3138786496872
2.6,2,54,5.16587648767413
2.6,2,55,5.00713182123363
2.6,2,56,4.83868440766051
2.6,2,57.0000000000001,4.6618346404166
2.6,2,58.0000000000001,4.47805394223378
2.6,2,59.0000000000001,4.28890245541436
2.6,2,60.0000000000001,4.09595710430115
2.6,2,61.0000000000001,3.90075183226843
2.6,2,62.0000000000001,3.70473073221345
2.6,2,63.0000000000001,3.50921390742566
2.6,2,64.0000000000001,3.31537521889122
2.6,2,65.0000000000001,3.12423058764643
2.6,2,66.0000000000001,2.93663521284284
2.6,2,67.0000000000001,2.75328791884499
2.6,2,68.0000000000001,2.57474083480047
2.6,2,69.0000000000001,2.40141271122102
2.6,2,70.0000000000001,2.23360436169353
2.6,2,71.0000000000001,2.07151495503336
2.6,2,72.0000000000001,1.91525814661616
2.6,2,73.0000000000001,1.7648773031362
2.6,2,74.0000000000001,1.62035932317344
2.6,2,75.0000000000001,1.48164677279574
2.6,2,76.0000000000001,1.34864823287336
2.6,2,77.0000000000001,1.22124689022884
2.6,2,78.0000000000001,1.0993075003639
2.6,2,79.0000000000001,0.982681911522083
2.6,2,80.0000000000001,0.871213378272657
2.6,2,81.0000000000001,0.764739922697088
2.6,2,82.0000000000001,0.663097048075269
2.6,2,83.0000000000001,0.566120226656948
2.6,2,84.0000000000001,0.473647905458337
2.6,2,85.0000000000001,0.385526718857543
2.6,2,86.0000000000001,0.301623691256665
2.6,2,87.0000000000001,0.221862403631694
2.6,2,88.0000000000001,0.146364472801904
2.6,2,89.0000000000001,0.0763461607520916
2.6,2,90.0000000000001,0.0297281884094852
2.6,2,91.0000000000001,0.0721822146996741
2.6,2,92.0000000000001,0.132677102587566
2.6,2,93.0000000000001,0.192412463220196
2.6,2,94.0000000000001,0.250172119977403
2.6,2,95.0000000000001,0.305878447198696
2.6,2,96.0000000000001,0.359663168158604
2.6,2,97.0000000000001,0.411716993199694
2.6,2,98.0000000000001,0.462245077228264
2.6,2,99.0000000000001,0.511444788609618
2.6,2,100,0.559488532700846
2.6,2,101,0.606507085056831
2.6,2,102,0.652572363612484
2.6,2,103,0.697679879131762
2.6,2,104,0.741731763840632
2.6,2,105,0.784521670981851
2.6,2,106,0.825723068091097
2.6,2,107,0.864882552206204
2.6,2,108,0.901419826148355
2.6,2,109,0.934635928222076
2.6,2,110,0.963731245668527
2.6,2,111,0.987834808391029
2.6,2,112,1.00604639518912
2.6,2,113,1.01749312958595
2.6,2,114,1.02140253406968
2.6,2,115,1.01719447271229
2.6,2,116,1.00459499081056
2.6,2,117,0.98377544657377
2.6,2,118,0.955519469494708
2.6,2,119,0.921415243379453
2.6,2,120,0.884054469544943
2.6,2,121,0.847179091627219
2.6,2,122,0.815638878552409
2.6,2,123,0.794928559474681
2.6,2,124,0.790095460088242
2.6,2,125,0.804172032878177
2.6,2,126,0.836894417953212
2.6,2,127,0.884552368258904
2.6,2,128,0.940978528359953
2.6,2,129,0.998906624191522
2.6,2,130,1.0510434599964
2.6,2,131,1.09072039988535
2.6,2,132,1.11227799593359
2.6,2,133,1.11135811236992
2.6,2,134,1.08521958672145
2.6,2,135,1.03316241055157
2.6,2,136,0.957172709241526
2.6,2,137,0.863001330574941
2.6,2,138,0.762027670137826
2.6,2,139,0.673928087878868
2.6,2,140,0.626986142677151
2.6,2,141,0.646016944240529
2.6,2,142,0.730547827250659
2.6,2,143,0.856031166574247
2.6,2,144,0.994222149184252
2.6,2,145,1.12286280447443
2.6,2,146,1.22568299931509
2.6,2,147,1.2909720934915
2.6,2,148,1.31091943986081
2.6,2,149,1.28168145366879
2.6,2,150,1.20401570141918
2.6,2,151,1.08465976644108
2.6,2,152,0.939246091072775
2.6,2,153,0.798253723327887
2.6,2,154,0.713639578554422
2.6,2,155,0.740275784699553
2.6,2,156,0.87852866529228
2.6,2,157,1.07724418131036
2.6,2,158,1.28667627715029
2.6,2,159,1.47300016794628
2.6,2,160,1.61353009248817
2.6,2,161,1.69290940782467
2.6,2,162,1.7016517057991
2.6,2,163,1.63577290774125
2.6,2,164,1.49681094444551
2.6,2,165,1.29203026384827
2.6,2,166,1.03513479171635
2.6,2,167,0.749423448089122
2.6,2,168,0.483867443722098
2.6,2,169,0.37562691053695
2.6,2,169.999999999999,0.529132594601533
2.6,2,170.999999999999,0.770798057997831
2.6,2,171.999999999999,0.993280247447892
2.6,2,172.999999999999,1.15938289237483
2.6,2,173.999999999999,1.251246800241
2.6,2,174.999999999999,1.25993383236591
2.6,2,175.999999999999,1.1832687929002
2.6,2,176.999999999999,1.02517298610796
2.6,2,177.999999999999,0.79515670891327
2.6,2,178.999999999999,0.507748984778564
2.6,2,179.999999999999,0.183451128007136
2.6,3,0,10.6907684816086
2.6,3,1,10.3744118100541
2.6,3,2,10.0813364857333
2.6,3,3,9.82638614307239
2.6,3,4,9.62187125843514
2.6,3,5,9.47691675830663
2.6,3,6,9.39703655735766
2.6,3,7,9.38394570442227
2.6,3,8,9.43559724030898
2.6,3,9,9.54641760171411
2.6,3,10,9.7077124360481
2.6,3,11,9.9082179528048
2.6,3,12,10.1347734140129
2.6,3,13,10.3730843447391
2.6,3,14,10.6085358667907
2.6,3,15,10.8270065311978
2.6,3,16,11.0156293772635
2.6,3,17,11.1634500071451
2.6,3,18,11.2619401889894
2.6,3,19,11.3053378444853
2.6,3,20,11.2907982486252
2.6,3,21,11.2183553726653
2.6,3,22,11.0907055573896
2.6,3,23,10.9128375233632
2.6,3,24,10.6915427473225
2.6,3,25,10.4348481649502
2.6,3,26,10.1514186047217
2.6,3,27,9.84997867393179
2.6,3,28,9.53880207946621
2.6,3,29,9.22530954651362
2.6,3,30,8.91580396367829
2.6,3,31,8.6153535939097
2.6,3,32,8.32781329031491
2.6,3,33,8.05595346839965
2.6,3,34,7.80165173961228
2.6,3,35,7.56609649627027
2.6,3,36,7.34995701104756
2.6,3,37,7.15348949935521
2.6,3,38,6.97656927144124
2.6,3,39,6.81866037453749
2.6,3,40,6.6787508073677
2.6,3,41,6.55528956270267
2.6,3,42,6.44615976207596
2.6,3,43,6.34871114571348
2.6,3,44,6.25985890537207
2.6,3,45,6.17623938957483
2.6,3,46,6.09440115993341
2.6,3,47,6.01100472492647
2.6,3,48,5.92300589220234
2.6,3,49,5.82780397808481
2.6,3,50,5.72334433020656
2.6,3,51,5.60817242710202
2.6,3,52,5.48144285323733
2.6,3,53,5.3428902862458
2.6,3,54,5.19277147932075
2.6,3,55,5.03178756098141
2.6,3,56,4.86099532719556
2.6,3,57.0000000000001,4.6817149996485
2.6,3,58.0000000000001,4.49544047949924
2.6,3,59.0000000000001,4.30375663977385
2.6,3,60.0000000000001,4.1082667921233
2.6,3,61.0000000000001,3.91053220190095
2.6,3,62.0000000000001,3.71202444325394
2.6,3,63.0000000000001,3.51409049736744
2.6,3,64.0000000000001,3.317929804395
2.6,3,65.0000000000001,3.12458197722636
2.6,3,66.0000000000001,2.93492356125549
2.6,3,67.0000000000001,2.74967206165219
2.6,3,68.0000000000001,2.56939543664582
2.6,3,69.0000000000001,2.39452534657568
2.6,3,70.0000000000001,2.22537262601042
2.6,3,71.0000000000001,2.06214368128869
2.6,3,72.0000000000001,1.90495678062727
2.6,3,73.0000000000001,1.75385747365404
2.6,3,74.0000000000001,1.60883263155838
2.6,3,75.0000000000001,1.46982282333441
2.6,3,76.0000000000001,1.33673292925029
2.6,3,77.0000000000001,1.20944103718645
2.6,3,78.0000000000001,1.08780577407887
2.6,3,79.0000000000001,0.971672302375056
2.6,3,80.0000000000001,0.860877276334655
2.6,3,81.0000000000001,0.755253133888179
2.6,3,82.0000000000001,0.654632253810747
2.6,3,83.0000000000001,0.558851867834498
2.6,3,84.0000000000001,0.467761538285351
2.6,3,85.0000000000001,0.381237586666627
2.6,3,86.0000000000001,0.299217008057336
2.6,3,87.0000000000001,0.22179421781633
2.6,3,88.0000000000001,0.149574777338318
2.6,3,89.0000000000001,0.0855637133720025
2.6,3,90.0000000000001,0.0498176343352493
2.6,3,91.0000000000001,0.0804967745212964
2.6,3,92.0000000000001,0.134579340985128
2.6,3,93.0000000000001,0.190620805758017
2.6,3,94.0000000000001,0.245491895619164
2.6,3,95.0000000000001,0.298594832808529
2.6,3,96.0000000000001,0.34986680472453
2.6,3,97.0000000000001,0.39940783585094
2.6,3,98.0000000000001,0.447375123056769
2.6,3,99.0000000000001,0.493940435929662
2.6,3,100,0.539265544644416
